Circuit: * C:\Users\saraa\Documents\school\phys490\a1-2f.asc

Direct Newton iteration for .op point succeeded.
Semiconductor Device Operating Points:
                        --- Bipolar Transistors ---
Name:       q2          q1
Model:      npn         npn
Ib:       2.70e+03    2.67e+01
Ic:       4.99e+00    2.67e+03
Vbe:      1.17e+00    1.16e+00
Vbc:      1.16e+00   -9.67e+00
Vce:      1.80e-02    1.08e+01
BetaDC:   1.85e-03    1.00e+02
Gm:       1.02e+05    1.03e+05
Rpi:      4.89e-04    9.69e-04
Rx:       0.00e+00    0.00e+00
Ro:       9.79e-06    0.00e+00
Cbe:      0.00e+00    0.00e+00
Cbc:      0.00e+00    0.00e+00
Cjs:      0.00e+00    0.00e+00
BetaAC:   5.00e+01    1.00e+02
Cbx:      0.00e+00    0.00e+00
Ft:       0.00e+00    0.00e+00



Date: Mon Feb 14 16:04:05 2022
Total elapsed time: 0.532 seconds.

tnom = 27
temp = 27
method = trap
totiter = 13
traniter = 0
tranpoints = 0
accept = 0
rejected = 0
matrix size = 7
fillins = 0
solver = Normal
Matrix Compiler1: 232 bytes object code size
Matrix Compiler2: 521 bytes object code size
