Circuit: * C:\Users\saraa\Documents\school\phys490\a1-2.asc

Direct Newton iteration for .op point succeeded.
Semiconductor Device Operating Points:
                        --- Bipolar Transistors ---
Name:       q2          q1
Model:      npn         npn
Ib:       1.74e+00    1.72e-02
Ic:       4.98e+00    1.72e+00
Vbe:      1.01e+00    9.67e-01
Vbc:      9.66e-01   -1.00e+01
Vce:      4.17e-02    1.10e+01
BetaDC:   2.87e+00    1.00e+02
Gm:       2.57e+02    6.65e+01
Rpi:      3.12e-01    1.50e+00
Rx:       0.00e+00    0.00e+00
Ro:       1.56e-02    0.00e+00
Cbe:      0.00e+00    0.00e+00
Cbc:      0.00e+00    0.00e+00
Cjs:      0.00e+00    0.00e+00
BetaAC:   8.01e+01    1.00e+02
Cbx:      0.00e+00    0.00e+00
Ft:       0.00e+00    0.00e+00



Date: Mon Feb 14 14:35:48 2022
Total elapsed time: 2.529 seconds.

tnom = 27
temp = 27
method = trap
totiter = 13
traniter = 0
tranpoints = 0
accept = 0
rejected = 0
matrix size = 7
fillins = 0
solver = Normal
Matrix Compiler1: 232 bytes object code size
Matrix Compiler2: 521 bytes object code size
