Circuit: * C:\Users\saraa\Documents\school\phys490\a1.asc

Direct Newton iteration for .op point succeeded.
Semiconductor Device Operating Points:
                        --- Bipolar Transistors ---
Name:       q1
Model:      npn
Ib:       1.98e-05
Ic:       1.98e-03
Vbe:      7.92e-01
Vbc:      1.98e-03
Vce:      7.90e-01
BetaDC:   1.00e+02
Gm:       7.66e-02
Rpi:      1.31e+03
Rx:       0.00e+00
Ro:       2.40e+14
Cbe:      0.00e+00
Cbc:      0.00e+00
Cjs:      0.00e+00
BetaAC:   1.00e+02
Cbx:      0.00e+00
Ft:       0.00e+00



Date: Mon Feb 14 13:57:09 2022
Total elapsed time: 1.282 seconds.

tnom = 27
temp = 27
method = trap
totiter = 6
traniter = 0
tranpoints = 0
accept = 0
rejected = 0
matrix size = 4
fillins = 0
solver = Normal
Matrix Compiler1: 118 bytes object code size
Matrix Compiler2: 282 bytes object code size
